! Created by VPF Tool @ TET-TUHH - by terd - on 20-Jul-2016

# GHZ S RI R 50.00

! Data
1.000E-01 -6.073723E-03 -4.779677E-03 1.042828E-03 8.286453E-04 4.301308E-04 3.381058E-04 5.738310E-01 -7.662323E-01 
-1.300269E-03 -9.786138E-04 -5.438446E-04 -3.989542E-04 
1.042828E-03 8.286453E-04 -6.477729E-03 -5.103355E-03 1.042828E-03 8.286453E-04 -1.300269E-03 -9.786138E-04 
5.743365E-01 -7.658506E-01 -1.300269E-03 -9.786138E-04 
4.301308E-04 3.381058E-04 1.042828E-03 8.286453E-04 -6.073723E-03 -4.779677E-03 -5.438446E-04 -3.989542E-04 
-1.300269E-03 -9.786138E-04 5.738310E-01 -7.662323E-01 
5.738310E-01 -7.662323E-01 -1.300269E-03 -9.786138E-04 -5.438446E-04 -3.989542E-04 -6.073723E-03 -4.779677E-03 
1.042828E-03 8.286453E-04 4.301308E-04 3.381058E-04 
-1.300269E-03 -9.786138E-04 5.743365E-01 -7.658506E-01 -1.300269E-03 -9.786138E-04 1.042828E-03 8.286453E-04 
-6.477729E-03 -5.103355E-03 1.042828E-03 8.286453E-04 
-5.438446E-04 -3.989542E-04 -1.300269E-03 -9.786138E-04 5.738310E-01 -7.662323E-01 4.301308E-04 3.381058E-04 
1.042828E-03 8.286453E-04 -6.073723E-03 -4.779677E-03 

2.000E-01 -5.748321E-03 9.171367E-04 1.243806E-03 -2.211821E-04 5.147163E-04 -8.911019E-05 -2.638707E-01 -8.999159E-01 
-3.093045E-03 9.530503E-04 -1.291611E-03 4.544455E-04 
1.243806E-03 -2.211821E-04 -6.239037E-03 9.990818E-04 1.243806E-03 -2.211821E-04 -3.093045E-03 9.530503E-04 
-2.626586E-01 -9.002933E-01 -3.093045E-03 9.530503E-04 
5.147163E-04 -8.911019E-05 1.243806E-03 -2.211821E-04 -5.748321E-03 9.171367E-04 -1.291611E-03 4.544455E-04 
-3.093045E-03 9.530503E-04 -2.638707E-01 -8.999159E-01 
-2.638707E-01 -8.999159E-01 -3.093045E-03 9.530503E-04 -1.291611E-03 4.544455E-04 -5.748321E-03 9.171367E-04 
1.243806E-03 -2.211821E-04 5.147163E-04 -8.911019E-05 
-3.093045E-03 9.530503E-04 -2.626586E-01 -9.002933E-01 -3.093045E-03 9.530503E-04 1.243806E-03 -2.211821E-04 
-6.239037E-03 9.990818E-04 1.243806E-03 -2.211821E-04 
-1.291611E-03 4.544455E-04 -3.093045E-03 9.530503E-04 -2.638707E-01 -8.999159E-01 5.147163E-04 -8.911019E-05 
1.243806E-03 -2.211821E-04 -5.748321E-03 9.171367E-04 

3.000E-01 1.082922E-03 -5.691318E-03 7.145263E-05 3.909582E-04 8.115015E-05 1.704955E-04 -8.638340E-01 -3.225861E-01 
-1.518081E-03 4.552074E-03 -4.958409E-04 2.012553E-03 
7.145263E-05 3.909582E-04 1.041570E-03 -5.835015E-03 7.145263E-05 3.909582E-04 -1.518081E-03 4.552074E-03 
-8.632556E-01 -3.243901E-01 -1.518081E-03 4.552074E-03 
8.115015E-05 1.704955E-04 7.145263E-05 3.909582E-04 1.082922E-03 -5.691318E-03 -4.958409E-04 2.012553E-03 
-1.518081E-03 4.552074E-03 -8.638340E-01 -3.225861E-01 
-8.638340E-01 -3.225861E-01 -1.518081E-03 4.552074E-03 -4.958409E-04 2.012553E-03 1.082922E-03 -5.691318E-03 
7.145263E-05 3.909582E-04 8.115015E-05 1.704955E-04 
-1.518081E-03 4.552074E-03 -8.632556E-01 -3.243901E-01 -1.518081E-03 4.552074E-03 7.145263E-05 3.909582E-04 
1.041570E-03 -5.835015E-03 7.145263E-05 3.909582E-04 
-4.958409E-04 2.012553E-03 -1.518081E-03 4.552074E-03 -8.638340E-01 -3.225861E-01 8.115015E-05 1.704955E-04 
7.145263E-05 3.909582E-04 1.082922E-03 -5.691318E-03 

4.000E-01 -9.793506E-03 -1.480936E-02 1.442942E-03 1.906174E-03 7.158093E-04 6.721228E-04 -7.642198E-01 4.906524E-01 
3.701362E-03 5.119027E-03 1.902432E-03 2.006267E-03 
1.442942E-03 1.906174E-03 -1.036263E-02 -1.553144E-02 1.442942E-03 1.906174E-03 3.701362E-03 5.119027E-03 
-7.657334E-01 4.886547E-01 3.701362E-03 5.119027E-03 
7.158093E-04 6.721228E-04 1.442942E-03 1.906174E-03 -9.793506E-03 -1.480936E-02 1.902432E-03 2.006267E-03 
3.701362E-03 5.119027E-03 -7.642198E-01 4.906524E-01 
-7.642198E-01 4.906524E-01 3.701362E-03 5.119027E-03 1.902432E-03 2.006267E-03 -9.793506E-03 -1.480936E-02 
1.442942E-03 1.906174E-03 7.158093E-04 6.721228E-04 
3.701362E-03 5.119027E-03 -7.657334E-01 4.886547E-01 3.701362E-03 5.119027E-03 1.442942E-03 1.906174E-03 
-1.036263E-02 -1.553144E-02 1.442942E-03 1.906174E-03 
1.902432E-03 2.006267E-03 3.701362E-03 5.119027E-03 -7.642198E-01 4.906524E-01 7.158093E-04 6.721228E-04 
1.442942E-03 1.906174E-03 -9.793506E-03 -1.480936E-02 

5.000E-01 -2.136522E-02 -2.667393E-03 3.705107E-03 9.481399E-05 1.467094E-03 -2.895241E-04 -6.452154E-02 8.931673E-01 
7.794269E-03 -5.030669E-05 3.344169E-03 -6.634562E-04 
3.705107E-03 9.481399E-05 -2.280228E-02 -2.669312E-03 3.705107E-03 9.481399E-05 7.794269E-03 -5.030669E-05 
-6.761995E-02 8.932945E-01 7.794269E-03 -5.030669E-05 
1.467094E-03 -2.895241E-04 3.705107E-03 9.481399E-05 -2.136522E-02 -2.667393E-03 3.344169E-03 -6.634562E-04 
7.794269E-03 -5.030669E-05 -6.452154E-02 8.931673E-01 
-6.452154E-02 8.931673E-01 7.794269E-03 -5.030669E-05 3.344169E-03 -6.634562E-04 -2.136522E-02 -2.667393E-03 
3.705107E-03 9.481399E-05 1.467094E-03 -2.895241E-04 
7.794269E-03 -5.030669E-05 -6.761995E-02 8.932945E-01 7.794269E-03 -5.030669E-05 3.705107E-03 9.481399E-05 
-2.280228E-02 -2.669312E-03 3.705107E-03 9.481399E-05 
3.344169E-03 -6.634562E-04 7.794269E-03 -5.030669E-05 -6.452154E-02 8.931673E-01 1.467094E-03 -2.895241E-04 
3.705107E-03 9.481399E-05 -2.136522E-02 -2.667393E-03 

6.000E-01 -1.266637E-02 1.175241E-02 2.484403E-03 -3.348400E-03 5.262030E-04 -1.575608E-03 6.674121E-01 5.794975E-01 
5.267222E-03 -7.493408E-03 1.439368E-03 -3.674921E-03 
2.484403E-03 -3.348400E-03 -1.357621E-02 1.309236E-02 2.484403E-03 -3.348400E-03 5.267222E-03 -7.493408E-03 
6.654577E-01 5.825711E-01 5.267222E-03 -7.493408E-03 
5.262030E-04 -1.575608E-03 2.484403E-03 -3.348400E-03 -1.266637E-02 1.175241E-02 1.439368E-03 -3.674921E-03 
5.267222E-03 -7.493408E-03 6.674121E-01 5.794975E-01 
6.674121E-01 5.794975E-01 5.267222E-03 -7.493408E-03 1.439368E-03 -3.674921E-03 -1.266637E-02 1.175241E-02 
2.484403E-03 -3.348400E-03 5.262030E-04 -1.575608E-03 
5.267222E-03 -7.493408E-03 6.654577E-01 5.825711E-01 5.267222E-03 -7.493408E-03 2.484403E-03 -3.348400E-03 
-1.357621E-02 1.309236E-02 2.484403E-03 -3.348400E-03 
1.439368E-03 -3.674921E-03 5.267222E-03 -7.493408E-03 6.674121E-01 5.794975E-01 5.262030E-04 -1.575608E-03 
2.484403E-03 -3.348400E-03 -1.266637E-02 1.175241E-02 

7.000E-01 1.823910E-03 1.397687E-02 -1.605303E-03 -4.407245E-03 -1.293801E-03 -1.401412E-03 8.533042E-01 -1.846141E-01 
-3.362804E-03 -9.853686E-03 -2.483622E-03 -3.624815E-03 
-1.605303E-03 -4.407245E-03 2.559478E-03 1.564983E-02 -1.605303E-03 -4.407245E-03 -3.362804E-03 -9.853686E-03 
8.548493E-01 -1.807808E-01 -3.362804E-03 -9.853686E-03 
-1.293801E-03 -1.401412E-03 -1.605303E-03 -4.407245E-03 1.823910E-03 1.397687E-02 -2.483622E-03 -3.624815E-03 
-3.362804E-03 -9.853686E-03 8.533042E-01 -1.846141E-01 
8.533042E-01 -1.846141E-01 -3.362804E-03 -9.853686E-03 -2.483622E-03 -3.624815E-03 1.823910E-03 1.397687E-02 
-1.605303E-03 -4.407245E-03 -1.293801E-03 -1.401412E-03 
-3.362804E-03 -9.853686E-03 8.548493E-01 -1.807808E-01 -3.362804E-03 -9.853686E-03 -1.605303E-03 -4.407245E-03 
2.559478E-03 1.564983E-02 -1.605303E-03 -4.407245E-03 
-2.483622E-03 -3.624815E-03 -3.362804E-03 -9.853686E-03 8.533042E-01 -1.846141E-01 -1.293801E-03 -1.401412E-03 
-1.605303E-03 -4.407245E-03 1.823910E-03 1.397687E-02 

8.000E-01 1.884652E-02 8.584728E-03 -5.714760E-03 -1.623426E-03 -2.476963E-03 3.300303E-04 3.591348E-01 -7.843418E-01 
-1.111710E-02 -3.575736E-03 -4.884191E-03 -1.134514E-04 
-5.714760E-03 -1.623426E-03 2.113766E-02 9.043632E-03 -5.714760E-03 -1.623426E-03 -1.111710E-02 -3.575736E-03 
3.636321E-01 -7.831829E-01 -1.111710E-02 -3.575736E-03 
-2.476963E-03 3.300303E-04 -5.714760E-03 -1.623426E-03 1.884652E-02 8.584728E-03 -4.884191E-03 -1.134514E-04 
-1.111710E-02 -3.575736E-03 3.591348E-01 -7.843418E-01 
3.591348E-01 -7.843418E-01 -1.111710E-02 -3.575736E-03 -4.884191E-03 -1.134514E-04 1.884652E-02 8.584728E-03 
-5.714760E-03 -1.623426E-03 -2.476963E-03 3.300303E-04 
-1.111710E-02 -3.575736E-03 3.636321E-01 -7.831829E-01 -1.111710E-02 -3.575736E-03 -5.714760E-03 -1.623426E-03 
2.113766E-02 9.043632E-03 -5.714760E-03 -1.623426E-03 
-4.884191E-03 -1.134514E-04 -1.111710E-02 -3.575736E-03 3.591348E-01 -7.843418E-01 -2.476963E-03 3.300303E-04 
-5.714760E-03 -1.623426E-03 1.884652E-02 8.584728E-03 

9.000E-01 3.027253E-02 -1.615531E-02 -5.825900E-03 3.987192E-03 -1.593414E-03 2.527600E-03 -4.078929E-01 -7.484398E-01 
-1.064907E-02 7.610021E-03 -3.326229E-03 4.423067E-03 
-5.825900E-03 3.987192E-03 3.244657E-02 -1.793137E-02 -5.825900E-03 3.987192E-03 -1.064907E-02 7.610021E-03 
-4.038381E-01 -7.517641E-01 -1.064907E-02 7.610021E-03 
-1.593414E-03 2.527600E-03 -5.825900E-03 3.987192E-03 3.027253E-02 -1.615531E-02 -3.326229E-03 4.423067E-03 
-1.064907E-02 7.610021E-03 -4.078929E-01 -7.484398E-01 
-4.078929E-01 -7.484398E-01 -1.064907E-02 7.610021E-03 -3.326229E-03 4.423067E-03 3.027253E-02 -1.615531E-02 
-5.825900E-03 3.987192E-03 -1.593414E-03 2.527600E-03 
-1.064907E-02 7.610021E-03 -4.038381E-01 -7.517641E-01 -1.064907E-02 7.610021E-03 -5.825900E-03 3.987192E-03 
3.244657E-02 -1.793137E-02 -5.825900E-03 3.987192E-03 
-3.326229E-03 4.423067E-03 -1.064907E-02 7.610021E-03 -4.078929E-01 -7.484398E-01 -1.593414E-03 2.527600E-03 
-5.825900E-03 3.987192E-03 3.027253E-02 -1.615531E-02 

1.000E+00 8.873621E-03 -3.847157E-02 -1.104471E-03 5.887608E-03 5.356451E-04 2.351108E-03 -8.337549E-01 -1.207580E-01 
-5.181845E-06 1.458539E-02 2.076737E-03 5.934776E-03 
-1.104471E-03 5.887608E-03 9.106851E-03 -4.087838E-02 -1.104471E-03 5.887608E-03 -5.181845E-06 1.458539E-02 
-8.342269E-01 -1.266263E-01 -5.181845E-06 1.458539E-02 
5.356451E-04 2.351108E-03 -1.104471E-03 5.887608E-03 8.873621E-03 -3.847157E-02 2.076737E-03 5.934776E-03 
-5.181845E-06 1.458539E-02 -8.337549E-01 -1.207580E-01 
-8.337549E-01 -1.207580E-01 -5.181845E-06 1.458539E-02 2.076737E-03 5.934776E-03 8.873621E-03 -3.847157E-02 
-1.104471E-03 5.887608E-03 5.356451E-04 2.351108E-03 
-5.181845E-06 1.458539E-02 -8.342269E-01 -1.266263E-01 -5.181845E-06 1.458539E-02 -1.104471E-03 5.887608E-03 
9.106851E-03 -4.087838E-02 -1.104471E-03 5.887608E-03 
2.076737E-03 5.934776E-03 -5.181845E-06 1.458539E-02 -8.337549E-01 -1.207580E-01 5.356451E-04 2.351108E-03 
-1.104471E-03 5.887608E-03 8.873621E-03 -3.847157E-02 

1.100E+00 -8.580978E-03 -1.869985E-02 -4.965877E-04 2.032909E-03 -1.904852E-04 8.230631E-04 -5.898083E-01 5.887554E-01 
1.296291E-02 8.945706E-03 6.744225E-03 1.526758E-03 
-4.965877E-04 2.032909E-03 -8.498108E-03 -1.957520E-02 -4.965877E-04 2.032909E-03 1.296291E-02 8.945706E-03 
-5.953782E-01 5.856786E-01 1.296291E-02 8.945706E-03 
-1.904852E-04 8.230631E-04 -4.965877E-04 2.032909E-03 -8.580978E-03 -1.869985E-02 6.744225E-03 1.526758E-03 
1.296291E-02 8.945706E-03 -5.898083E-01 5.887554E-01 
-5.898083E-01 5.887554E-01 1.296291E-02 8.945706E-03 6.744225E-03 1.526758E-03 -8.580978E-03 -1.869985E-02 
-4.965877E-04 2.032909E-03 -1.904852E-04 8.230631E-04 
1.296291E-02 8.945706E-03 -5.953782E-01 5.856786E-01 1.296291E-02 8.945706E-03 -4.965877E-04 2.032909E-03 
-8.498108E-03 -1.957520E-02 -4.965877E-04 2.032909E-03 
6.744225E-03 1.526758E-03 1.296291E-02 8.945706E-03 -5.898083E-01 5.887554E-01 -1.904852E-04 8.230631E-04 
-4.965877E-04 2.032909E-03 -8.580978E-03 -1.869985E-02 

1.200E+00 2.576480E-02 -1.182306E-02 -6.459775E-03 4.115162E-03 -1.958048E-03 3.236000E-03 1.177687E-01 8.153255E-01 
1.538176E-02 -5.477643E-03 5.152164E-03 -5.122484E-03 
-6.459775E-03 4.115162E-03 2.809009E-02 -1.374731E-02 -6.459775E-03 4.115162E-03 1.538176E-02 -5.477643E-03 
1.118891E-01 8.182143E-01 1.538176E-02 -5.477643E-03 
-1.958048E-03 3.236000E-03 -6.459775E-03 4.115162E-03 2.576480E-02 -1.182306E-02 5.152164E-03 -5.122484E-03 
1.538176E-02 -5.477643E-03 1.177687E-01 8.153255E-01 
1.177687E-01 8.153255E-01 1.538176E-02 -5.477643E-03 5.152164E-03 -5.122484E-03 2.576480E-02 -1.182306E-02 
-6.459775E-03 4.115162E-03 -1.958048E-03 3.236000E-03 
1.538176E-02 -5.477643E-03 1.118891E-01 8.182143E-01 1.538176E-02 -5.477643E-03 -6.459775E-03 4.115162E-03 
2.809009E-02 -1.374731E-02 -6.459775E-03 4.115162E-03 
5.152164E-03 -5.122484E-03 1.538176E-02 -5.477643E-03 1.177687E-01 8.153255E-01 -1.958048E-03 3.236000E-03 
-6.459775E-03 4.115162E-03 2.576480E-02 -1.182306E-02 

1.300E+00 3.535198E-02 -7.095600E-02 -4.063767E-03 1.454326E-02 1.760761E-03 6.585033E-03 7.132226E-01 3.884638E-01 
5.528565E-03 -1.612038E-02 -1.399553E-03 -7.392753E-03 
-4.063767E-03 1.454326E-02 3.623669E-02 -7.688528E-02 -4.063767E-03 1.454326E-02 5.528565E-03 -1.612038E-02 
7.118148E-01 3.951049E-01 5.528565E-03 -1.612038E-02 
1.760761E-03 6.585033E-03 -4.063767E-03 1.454326E-02 3.535198E-02 -7.095600E-02 -1.399553E-03 -7.392753E-03 
5.528565E-03 -1.612038E-02 7.132226E-01 3.884638E-01 
7.132226E-01 3.884638E-01 5.528565E-03 -1.612038E-02 -1.399553E-03 -7.392753E-03 3.535198E-02 -7.095600E-02 
-4.063767E-03 1.454326E-02 1.760761E-03 6.585033E-03 
5.528565E-03 -1.612038E-02 7.118148E-01 3.951049E-01 5.528565E-03 -1.612038E-02 -4.063767E-03 1.454326E-02 
3.623669E-02 -7.688528E-02 -4.063767E-03 1.454326E-02 
-1.399553E-03 -7.392753E-03 5.528565E-03 -1.612038E-02 7.132226E-01 3.884638E-01 1.760761E-03 6.585033E-03 
-4.063767E-03 1.454326E-02 3.535198E-02 -7.095600E-02 

1.400E+00 -3.696180E-02 -9.882223E-02 9.301796E-03 1.562677E-02 6.913823E-03 3.272728E-03 7.297534E-01 -3.306670E-01 
-1.006861E-02 -1.569986E-02 -7.181397E-03 -3.133095E-03 
9.301796E-03 1.562677E-02 -4.142507E-02 -1.045302E-01 9.301796E-03 1.562677E-02 -1.006861E-02 -1.569986E-02 
7.345128E-01 -3.249842E-01 -1.006861E-02 -1.569986E-02 
6.913823E-03 3.272728E-03 9.301796E-03 1.562677E-02 -3.696180E-02 -9.882223E-02 -7.181397E-03 -3.133095E-03 
-1.006861E-02 -1.569986E-02 7.297534E-01 -3.306670E-01 
7.297534E-01 -3.306670E-01 -1.006861E-02 -1.569986E-02 -7.181397E-03 -3.133095E-03 -3.696180E-02 -9.882223E-02 
9.301796E-03 1.562677E-02 6.913823E-03 3.272728E-03 
-1.006861E-02 -1.569986E-02 7.345128E-01 -3.249842E-01 -1.006861E-02 -1.569986E-02 9.301796E-03 1.562677E-02 
-4.142507E-02 -1.045302E-01 9.301796E-03 1.562677E-02 
-7.181397E-03 -3.133095E-03 -1.006861E-02 -1.569986E-02 7.297534E-01 -3.306670E-01 6.913823E-03 3.272728E-03 
9.301796E-03 1.562677E-02 -3.696180E-02 -9.882223E-02 

1.500E+00 -7.992869E-02 -3.509805E-02 1.489173E-02 3.517819E-03 5.362045E-03 -2.311319E-03 1.751549E-01 -7.751503E-01 
-2.043703E-02 -1.092674E-03 -6.700977E-03 4.257946E-03 
1.489173E-02 3.517819E-03 -8.605779E-02 -3.573742E-02 1.489173E-02 3.517819E-03 -2.043703E-02 -1.092674E-03 
1.832386E-01 -7.757966E-01 -2.043703E-02 -1.092674E-03 
5.362045E-03 -2.311319E-03 1.489173E-02 3.517819E-03 -7.992869E-02 -3.509805E-02 -6.700977E-03 4.257946E-03 
-2.043703E-02 -1.092674E-03 1.751549E-01 -7.751503E-01 
1.751549E-01 -7.751503E-01 -2.043703E-02 -1.092674E-03 -6.700977E-03 4.257946E-03 -7.992869E-02 -3.509805E-02 
1.489173E-02 3.517819E-03 5.362045E-03 -2.311319E-03 
-2.043703E-02 -1.092674E-03 1.832386E-01 -7.757966E-01 -2.043703E-02 -1.092674E-03 1.489173E-02 3.517819E-03 
-8.605779E-02 -3.573742E-02 1.489173E-02 3.517819E-03 
-6.700977E-03 4.257946E-03 -2.043703E-02 -1.092674E-03 1.751549E-01 -7.751503E-01 5.362045E-03 -2.311319E-03 
1.489173E-02 3.517819E-03 -7.992869E-02 -3.509805E-02 

1.600E+00 -3.349769E-02 3.324312E-03 6.859491E-03 -3.652013E-03 1.126810E-03 -2.256275E-03 -5.127839E-01 -6.015806E-01 
-1.328434E-02 1.697665E-02 -5.672411E-04 7.766229E-03 
6.859491E-03 -3.652013E-03 -3.612845E-02 5.230288E-03 6.859491E-03 -3.652013E-03 -1.328434E-02 1.697665E-02 
-5.084909E-01 -6.089275E-01 -1.328434E-02 1.697665E-02 
1.126810E-03 -2.256275E-03 6.859491E-03 -3.652013E-03 -3.349769E-02 3.324312E-03 -5.672411E-04 7.766229E-03 
-1.328434E-02 1.697665E-02 -5.127839E-01 -6.015806E-01 
-5.127839E-01 -6.015806E-01 -1.328434E-02 1.697665E-02 -5.672411E-04 7.766229E-03 -3.349769E-02 3.324312E-03 
6.859491E-03 -3.652013E-03 1.126810E-03 -2.256275E-03 
-1.328434E-02 1.697665E-02 -5.084909E-01 -6.089275E-01 -1.328434E-02 1.697665E-02 6.859491E-03 -3.652013E-03 
-3.612845E-02 5.230288E-03 6.859491E-03 -3.652013E-03 
-5.672411E-04 7.766229E-03 -1.328434E-02 1.697665E-02 -5.127839E-01 -6.015806E-01 1.126810E-03 -2.256275E-03 
6.859491E-03 -3.652013E-03 -3.349769E-02 3.324312E-03 

1.700E+00 -1.440173E-02 -3.505850E-02 1.917947E-03 1.252936E-03 1.076031E-03 1.159282E-04 -7.818112E-01 5.207812E-02 
5.835053E-03 2.150401E-02 5.655423E-03 5.554012E-03 
1.917947E-03 1.252936E-03 -1.518384E-02 -3.524780E-02 1.917947E-03 1.252936E-03 5.835053E-03 2.150401E-02 
-7.852185E-01 4.395406E-02 5.835053E-03 2.150401E-02 
1.076031E-03 1.159282E-04 1.917947E-03 1.252936E-03 -1.440173E-02 -3.505850E-02 5.655423E-03 5.554012E-03 
5.835053E-03 2.150401E-02 -7.818112E-01 5.207812E-02 
-7.818112E-01 5.207812E-02 5.835053E-03 2.150401E-02 5.655423E-03 5.554012E-03 -1.440173E-02 -3.505850E-02 
1.917947E-03 1.252936E-03 1.076031E-03 1.159282E-04 
5.835053E-03 2.150401E-02 -7.852185E-01 4.395406E-02 5.835053E-03 2.150401E-02 1.917947E-03 1.252936E-03 
-1.518384E-02 -3.524780E-02 1.917947E-03 1.252936E-03 
5.655423E-03 5.554012E-03 5.835053E-03 2.150401E-02 -7.818112E-01 5.207812E-02 1.076031E-03 1.159282E-04 
1.917947E-03 1.252936E-03 -1.440173E-02 -3.505850E-02 

1.800E+00 -5.665007E-02 -3.812188E-02 7.191039E-03 3.254966E-03 2.857430E-03 -6.882940E-04 -4.213304E-01 6.501392E-01 
2.181552E-02 9.067011E-03 8.658025E-03 -8.581529E-04 
7.191039E-03 3.254966E-03 -5.949984E-02 -3.898476E-02 7.191039E-03 3.254966E-03 2.181552E-02 9.067011E-03 
-4.304434E-01 6.476873E-01 2.181552E-02 9.067011E-03 
2.857430E-03 -6.882940E-04 7.191039E-03 3.254966E-03 -5.665007E-02 -3.812188E-02 8.658025E-03 -8.581529E-04 
2.181552E-02 9.067011E-03 -4.213304E-01 6.501392E-01 
-4.213304E-01 6.501392E-01 2.181552E-02 9.067011E-03 8.658025E-03 -8.581529E-04 -5.665007E-02 -3.812188E-02 
7.191039E-03 3.254966E-03 2.857430E-03 -6.882940E-04 
2.181552E-02 9.067011E-03 -4.304434E-01 6.476873E-01 2.181552E-02 9.067011E-03 7.191039E-03 3.254966E-03 
-5.949984E-02 -3.898476E-02 7.191039E-03 3.254966E-03 
8.658025E-03 -8.581529E-04 2.181552E-02 9.067011E-03 -4.213304E-01 6.501392E-01 2.857430E-03 -6.882940E-04 
7.191039E-03 3.254966E-03 -5.665007E-02 -3.812188E-02 

1.900E+00 -5.781429E-02 8.143760E-03 9.563451E-03 -4.757439E-03 1.830338E-03 -3.699843E-03 2.651631E-01 7.199827E-01 
2.184790E-02 -1.314193E-02 5.030154E-03 -8.415352E-03 
9.563451E-03 -4.757439E-03 -6.133428E-02 1.050788E-02 9.563451E-03 -4.757439E-03 2.184790E-02 -1.314193E-02 
2.571260E-01 7.264709E-01 2.184790E-02 -1.314193E-02 
1.830338E-03 -3.699843E-03 9.563451E-03 -4.757439E-03 -5.781429E-02 8.143760E-03 5.030154E-03 -8.415352E-03 
2.184790E-02 -1.314193E-02 2.651631E-01 7.199827E-01 
2.651631E-01 7.199827E-01 2.184790E-02 -1.314193E-02 5.030154E-03 -8.415352E-03 -5.781429E-02 8.143760E-03 
9.563451E-03 -4.757439E-03 1.830338E-03 -3.699843E-03 
2.184790E-02 -1.314193E-02 2.571260E-01 7.264709E-01 2.184790E-02 -1.314193E-02 9.563451E-03 -4.757439E-03 
-6.133428E-02 1.050788E-02 9.563451E-03 -4.757439E-03 
5.030154E-03 -8.415352E-03 2.184790E-02 -1.314193E-02 2.651631E-01 7.199827E-01 1.830338E-03 -3.699843E-03 
9.563451E-03 -4.757439E-03 -5.781429E-02 8.143760E-03 

2.000E+00 -2.034235E-02 1.740003E-02 7.374408E-04 -1.176357E-02 -2.846031E-03 -4.391407E-03 7.290092E-01 2.164264E-01 
1.887424E-03 -2.700424E-02 -4.603539E-03 -9.762867E-03 
7.374408E-04 -1.176357E-02 -1.992344E-02 2.223677E-02 7.374408E-04 -1.176357E-02 1.887424E-03 -2.700424E-02 
7.299126E-01 2.274817E-01 1.887424E-03 -2.700424E-02 
-2.846031E-03 -4.391407E-03 7.374408E-04 -1.176357E-02 -2.034235E-02 1.740003E-02 -4.603539E-03 -9.762867E-03 
1.887424E-03 -2.700424E-02 7.290092E-01 2.164264E-01 
7.290092E-01 2.164264E-01 1.887424E-03 -2.700424E-02 -4.603539E-03 -9.762867E-03 -2.034235E-02 1.740003E-02 
7.374408E-04 -1.176357E-02 -2.846031E-03 -4.391407E-03 
1.887424E-03 -2.700424E-02 7.299126E-01 2.274817E-01 1.887424E-03 -2.700424E-02 7.374408E-04 -1.176357E-02 
-1.992344E-02 2.223677E-02 7.374408E-04 -1.176357E-02 
-4.603539E-03 -9.762867E-03 1.887424E-03 -2.700424E-02 7.290092E-01 2.164264E-01 -2.846031E-03 -4.391407E-03 
7.374408E-04 -1.176357E-02 -2.034235E-02 1.740003E-02 

