! Created by VPF Tool @ TET-TUHH - by terd - on 20-Jul-2016

# GHZ S RI R 50.00

! Data
1.000E-01 -9.732939E-03 -7.721692E-03 1.490515E-04 1.213946E-04 3.298117E-05 2.667932E-05 5.783751E-01 -7.627608E-01 
-1.852340E-04 -1.430110E-04 -4.175374E-05 -3.137254E-05 
1.490515E-04 1.213946E-04 -9.813857E-03 -7.787615E-03 1.490515E-04 1.213946E-04 -1.852340E-04 -1.430110E-04 
5.784760E-01 -7.626831E-01 -1.852340E-04 -1.430110E-04 
3.298117E-05 2.667932E-05 1.490515E-04 1.213946E-04 -9.732939E-03 -7.721692E-03 -4.175374E-05 -3.137254E-05 
-1.852340E-04 -1.430110E-04 5.783751E-01 -7.627608E-01 
5.783751E-01 -7.627608E-01 -1.852340E-04 -1.430110E-04 -4.175374E-05 -3.137254E-05 -9.732939E-03 -7.721692E-03 
1.490515E-04 1.213946E-04 3.298117E-05 2.667932E-05 
-1.852340E-04 -1.430110E-04 5.784760E-01 -7.626831E-01 -1.852340E-04 -1.430110E-04 1.490515E-04 1.213946E-04 
-9.813857E-03 -7.787615E-03 1.490515E-04 1.213946E-04 
-4.175374E-05 -3.137254E-05 -1.852340E-04 -1.430110E-04 5.783751E-01 -7.627608E-01 3.298117E-05 2.667932E-05 
1.490515E-04 1.213946E-04 -9.732939E-03 -7.721692E-03 

2.000E-01 -1.016001E-02 1.673270E-03 1.832930E-04 -2.922867E-05 4.121219E-05 -6.146200E-06 -2.530081E-01 -9.030596E-01 
-4.464493E-04 1.261435E-04 -1.010104E-04 3.386434E-05 
1.832930E-04 -2.922867E-05 -1.026017E-02 1.688910E-03 1.832930E-04 -2.922867E-05 -4.464493E-04 1.261435E-04 
-2.527641E-01 -9.031306E-01 -4.464493E-04 1.261435E-04 
4.121219E-05 -6.146200E-06 1.832930E-04 -2.922867E-05 -1.016001E-02 1.673270E-03 -1.010104E-04 3.386434E-05 
-4.464493E-04 1.261435E-04 -2.530081E-01 -9.030596E-01 
-2.530081E-01 -9.030596E-01 -4.464493E-04 1.261435E-04 -1.010104E-04 3.386434E-05 -1.016001E-02 1.673270E-03 
1.832930E-04 -2.922867E-05 4.121219E-05 -6.146200E-06 
-4.464493E-04 1.261435E-04 -2.527641E-01 -9.031306E-01 -4.464493E-04 1.261435E-04 1.832930E-04 -2.922867E-05 
-1.026017E-02 1.688910E-03 1.832930E-04 -2.922867E-05 
-1.010104E-04 3.386434E-05 -4.464493E-04 1.261435E-04 -2.530081E-01 -9.030596E-01 4.121219E-05 -6.146200E-06 
1.832930E-04 -2.922867E-05 -1.016001E-02 1.673270E-03 

3.000E-01 9.535581E-04 -6.978108E-03 6.726728E-06 4.836861E-05 6.626994E-06 1.118864E-05 -8.580668E-01 -3.381939E-01 
-2.409904E-04 6.384418E-04 -4.130918E-05 1.557340E-04 
6.726728E-06 4.836861E-05 9.474636E-04 -7.004166E-03 6.726728E-06 4.836861E-05 -2.409904E-04 6.384418E-04 
-8.579402E-01 -3.385485E-01 -2.409904E-04 6.384418E-04 
6.626994E-06 1.118864E-05 6.726728E-06 4.836861E-05 9.535581E-04 -6.978108E-03 -4.130918E-05 1.557340E-04 
-2.409904E-04 6.384418E-04 -8.580668E-01 -3.381939E-01 
-8.580668E-01 -3.381939E-01 -2.409904E-04 6.384418E-04 -4.130918E-05 1.557340E-04 9.535581E-04 -6.978108E-03 
6.726728E-06 4.836861E-05 6.626994E-06 1.118864E-05 
-2.409904E-04 6.384418E-04 -8.579402E-01 -3.385485E-01 -2.409904E-04 6.384418E-04 6.726728E-06 4.836861E-05 
9.474636E-04 -7.004166E-03 6.726728E-06 4.836861E-05 
-4.130918E-05 1.557340E-04 -2.409904E-04 6.384418E-04 -8.580668E-01 -3.381939E-01 6.626994E-06 1.118864E-05 
6.726728E-06 4.836861E-05 9.535581E-04 -6.978108E-03 

4.000E-01 -1.440986E-02 -2.182678E-02 1.816099E-04 2.875027E-04 5.215150E-05 5.338043E-05 -7.760476E-01 4.723337E-01 
4.774822E-04 7.552997E-04 1.438291E-04 1.594361E-04 
1.816099E-04 2.875027E-04 -1.451338E-02 -2.197885E-02 1.816099E-04 2.875027E-04 4.774822E-04 7.552997E-04 
-7.763258E-01 4.719234E-01 4.774822E-04 7.552997E-04 
5.215150E-05 5.338043E-05 1.816099E-04 2.875027E-04 -1.440986E-02 -2.182678E-02 1.438291E-04 1.594361E-04 
4.774822E-04 7.552997E-04 -7.760476E-01 4.723337E-01 
-7.760476E-01 4.723337E-01 4.774822E-04 7.552997E-04 1.438291E-04 1.594361E-04 -1.440986E-02 -2.182678E-02 
1.816099E-04 2.875027E-04 5.215150E-05 5.338043E-05 
4.774822E-04 7.552997E-04 -7.763258E-01 4.719234E-01 4.774822E-04 7.552997E-04 1.816099E-04 2.875027E-04 
-1.451338E-02 -2.197885E-02 1.816099E-04 2.875027E-04 
1.438291E-04 1.594361E-04 4.774822E-04 7.552997E-04 -7.760476E-01 4.723337E-01 5.215150E-05 5.338043E-05 
1.816099E-04 2.875027E-04 -1.440986E-02 -2.182678E-02 

5.000E-01 -3.449325E-02 -4.122257E-03 5.365330E-04 7.177610E-05 1.160481E-04 -1.657999E-05 -9.142353E-02 8.913346E-01 
1.102108E-03 8.854584E-05 2.619678E-04 -4.360383E-05 
5.365330E-04 7.177610E-05 -3.478529E-02 -4.148214E-03 5.365330E-04 7.177610E-05 1.102108E-03 8.854584E-05 
-9.203767E-02 8.913147E-01 1.102108E-03 8.854584E-05 
1.160481E-04 -1.657999E-05 5.365330E-04 7.177610E-05 -3.449325E-02 -4.122257E-03 2.619678E-04 -4.360383E-05 
1.102108E-03 8.854584E-05 -9.142353E-02 8.913346E-01 
-9.142353E-02 8.913346E-01 1.102108E-03 8.854584E-05 2.619678E-04 -4.360383E-05 -3.449325E-02 -4.122257E-03 
5.365330E-04 7.177610E-05 1.160481E-04 -1.657999E-05 
1.102108E-03 8.854584E-05 -9.203767E-02 8.913147E-01 1.102108E-03 8.854584E-05 5.365330E-04 7.177610E-05 
-3.478529E-02 -4.148214E-03 5.365330E-04 7.177610E-05 
2.619678E-04 -4.360383E-05 1.102108E-03 8.854584E-05 -9.142353E-02 8.913346E-01 1.160481E-04 -1.657999E-05 
5.365330E-04 7.177610E-05 -3.449325E-02 -4.122257E-03 

6.000E-01 -2.295824E-02 2.270600E-02 4.343757E-04 -4.395205E-04 4.852565E-05 -1.219303E-04 6.467421E-01 6.038115E-01 
8.608791E-04 -9.855059E-04 1.213688E-04 -2.828811E-04 
4.343757E-04 -4.395205E-04 -2.317662E-02 2.295868E-02 4.343757E-04 -4.395205E-04 8.608791E-04 -9.855059E-04 
6.462993E-01 6.043865E-01 8.608791E-04 -9.855059E-04 
4.852565E-05 -1.219303E-04 4.343757E-04 -4.395205E-04 -2.295824E-02 2.270600E-02 1.213688E-04 -2.828811E-04 
8.608791E-04 -9.855059E-04 6.467421E-01 6.038115E-01 
6.467421E-01 6.038115E-01 8.608791E-04 -9.855059E-04 1.213688E-04 -2.828811E-04 -2.295824E-02 2.270600E-02 
4.343757E-04 -4.395205E-04 4.852565E-05 -1.219303E-04 
8.608791E-04 -9.855059E-04 6.462993E-01 6.043865E-01 8.608791E-04 -9.855059E-04 4.343757E-04 -4.395205E-04 
-2.317662E-02 2.295868E-02 4.343757E-04 -4.395205E-04 
1.213688E-04 -2.828811E-04 8.608791E-04 -9.855059E-04 6.467421E-01 6.038115E-01 4.852565E-05 -1.219303E-04 
4.343757E-04 -4.395205E-04 -2.295824E-02 2.270600E-02 

7.000E-01 5.220588E-03 3.047491E-02 -1.189175E-04 -6.777456E-04 -9.318957E-05 -1.136971E-04 8.614863E-01 -1.490187E-01 
-3.120907E-04 -1.462165E-03 -1.828628E-04 -2.874459E-04 
-1.189175E-04 -6.777456E-04 5.318835E-03 3.083448E-02 -1.189175E-04 -6.777456E-04 -3.120907E-04 -1.462165E-03 
8.617161E-01 -1.482245E-01 -3.120907E-04 -1.462165E-03 
-9.318957E-05 -1.136971E-04 -1.189175E-04 -6.777456E-04 5.220588E-03 3.047491E-02 -1.828628E-04 -2.874459E-04 
-3.120907E-04 -1.462165E-03 8.614863E-01 -1.490187E-01 
8.614863E-01 -1.490187E-01 -3.120907E-04 -1.462165E-03 -1.828628E-04 -2.874459E-04 5.220588E-03 3.047491E-02 
-1.189175E-04 -6.777456E-04 -9.318957E-05 -1.136971E-04 
-3.120907E-04 -1.462165E-03 8.617161E-01 -1.482245E-01 -3.120907E-04 -1.462165E-03 -1.189175E-04 -6.777456E-04 
5.318835E-03 3.083448E-02 -1.189175E-04 -6.777456E-04 
-1.828628E-04 -2.874459E-04 -3.120907E-04 -1.462165E-03 8.614863E-01 -1.490187E-01 -9.318957E-05 -1.136971E-04 
-1.189175E-04 -6.777456E-04 5.220588E-03 3.047491E-02 

8.000E-01 3.791074E-02 1.747765E-02 -7.624301E-04 -3.886660E-04 -1.882695E-04 1.119057E-05 3.965657E-01 -7.675298E-01 
-1.516447E-03 -7.183730E-04 -3.752363E-04 -2.575261E-05 
-7.624301E-04 -3.886660E-04 3.834843E-02 1.764410E-02 -7.624301E-04 -3.886660E-04 -1.516447E-03 -7.183730E-04 
3.974336E-01 -7.671985E-01 -1.516447E-03 -7.183730E-04 
-1.882695E-04 1.119057E-05 -7.624301E-04 -3.886660E-04 3.791074E-02 1.747765E-02 -3.752363E-04 -2.575261E-05 
-1.516447E-03 -7.183730E-04 3.965657E-01 -7.675298E-01 
3.965657E-01 -7.675298E-01 -1.516447E-03 -7.183730E-04 -3.752363E-04 -2.575261E-05 3.791074E-02 1.747765E-02 
-7.624301E-04 -3.886660E-04 -1.882695E-04 1.119057E-05 
-1.516447E-03 -7.183730E-04 3.974336E-01 -7.671985E-01 -1.516447E-03 -7.183730E-04 -7.624301E-04 -3.886660E-04 
3.834843E-02 1.764410E-02 -7.624301E-04 -3.886660E-04 
-3.752363E-04 -2.575261E-05 -1.516447E-03 -7.183730E-04 3.965657E-01 -7.675298E-01 -1.882695E-04 1.119057E-05 
-7.624301E-04 -3.886660E-04 3.791074E-02 1.747765E-02 

9.000E-01 5.295474E-02 -2.672154E-02 -9.479273E-04 3.974613E-04 -1.405903E-04 1.822272E-04 -3.676235E-01 -7.703915E-01 
-1.672166E-03 8.581865E-04 -2.767281E-04 3.252524E-04 
-9.479273E-04 3.974613E-04 5.344890E-02 -2.699835E-02 -9.479273E-04 3.974613E-04 -1.672166E-03 8.581865E-04 
-3.667370E-01 -7.709483E-01 -1.672166E-03 8.581865E-04 
-1.405903E-04 1.822272E-04 -9.479273E-04 3.974613E-04 5.295474E-02 -2.672154E-02 -2.767281E-04 3.252524E-04 
-1.672166E-03 8.581865E-04 -3.676235E-01 -7.703915E-01 
-3.676235E-01 -7.703915E-01 -1.672166E-03 8.581865E-04 -2.767281E-04 3.252524E-04 5.295474E-02 -2.672154E-02 
-9.479273E-04 3.974613E-04 -1.405903E-04 1.822272E-04 
-1.672166E-03 8.581865E-04 -3.667370E-01 -7.709483E-01 -1.672166E-03 8.581865E-04 -9.479273E-04 3.974613E-04 
5.344890E-02 -2.699835E-02 -9.479273E-04 3.974613E-04 
-2.767281E-04 3.252524E-04 -1.672166E-03 8.581865E-04 -3.676235E-01 -7.703915E-01 -1.405903E-04 1.822272E-04 
-9.479273E-04 3.974613E-04 5.295474E-02 -2.672154E-02 

1.000E+00 1.623218E-02 -5.909982E-02 -3.396603E-04 8.616144E-04 2.615735E-05 1.994708E-04 -8.268799E-01 -1.712249E-01 
-3.356104E-04 2.067065E-03 1.306109E-04 4.711459E-04 
-3.396603E-04 8.616144E-04 1.636432E-02 -5.959259E-02 -3.396603E-04 8.616144E-04 -3.356104E-04 2.067065E-03 
-8.268097E-01 -1.723970E-01 -3.356104E-04 2.067065E-03 
2.615735E-05 1.994708E-04 -3.396603E-04 8.616144E-04 1.623218E-02 -5.909982E-02 1.306109E-04 4.711459E-04 
-3.356104E-04 2.067065E-03 -8.268799E-01 -1.712249E-01 
-8.268799E-01 -1.712249E-01 -3.356104E-04 2.067065E-03 1.306109E-04 4.711459E-04 1.623218E-02 -5.909982E-02 
-3.396603E-04 8.616144E-04 2.615735E-05 1.994708E-04 
-3.356104E-04 2.067065E-03 -8.268097E-01 -1.723970E-01 -3.356104E-04 2.067065E-03 -3.396603E-04 8.616144E-04 
1.636432E-02 -5.959259E-02 -3.396603E-04 8.616144E-04 
1.306109E-04 4.711459E-04 -3.356104E-04 2.067065E-03 -8.268799E-01 -1.712249E-01 2.615735E-05 1.994708E-04 
-3.396603E-04 8.616144E-04 1.623218E-02 -5.909982E-02 

1.100E+00 -7.204922E-03 -2.636473E-02 -2.328354E-05 3.475766E-04 9.287074E-06 6.883569E-05 -6.296753E-01 5.512286E-01 
1.600212E-03 1.576871E-03 5.145141E-04 1.522961E-04 
-2.328354E-05 3.475766E-04 -7.205428E-03 -2.655868E-02 -2.328354E-05 3.475766E-04 1.600212E-03 1.576871E-03 
-6.306746E-01 5.504549E-01 1.600212E-03 1.576871E-03 
9.287074E-06 6.883569E-05 -2.328354E-05 3.475766E-04 -7.204922E-03 -2.636473E-02 5.145141E-04 1.522961E-04 
1.600212E-03 1.576871E-03 -6.296753E-01 5.512286E-01 
-6.296753E-01 5.512286E-01 1.600212E-03 1.576871E-03 5.145141E-04 1.522961E-04 -7.204922E-03 -2.636473E-02 
-2.328354E-05 3.475766E-04 9.287074E-06 6.883569E-05 
1.600212E-03 1.576871E-03 -6.306746E-01 5.504549E-01 1.600212E-03 1.576871E-03 -2.328354E-05 3.475766E-04 
-7.205428E-03 -2.655868E-02 -2.328354E-05 3.475766E-04 
5.145141E-04 1.522961E-04 1.600212E-03 1.576871E-03 -6.296753E-01 5.512286E-01 9.287074E-06 6.883569E-05 
-2.328354E-05 3.475766E-04 -7.204922E-03 -2.636473E-02 

1.200E+00 4.899909E-02 -2.058628E-02 -9.093763E-04 2.974925E-04 -1.582858E-04 2.086525E-04 6.207983E-02 8.246829E-01 
2.272836E-03 -3.192000E-04 4.236698E-04 -3.601724E-04 
-9.093763E-04 2.974925E-04 4.948338E-02 -2.083608E-02 -9.093763E-04 2.974925E-04 2.272836E-03 -3.192000E-04 
6.084010E-02 8.250377E-01 2.272836E-03 -3.192000E-04 
-1.582858E-04 2.086525E-04 -9.093763E-04 2.974925E-04 4.899909E-02 -2.058628E-02 4.236698E-04 -3.601724E-04 
2.272836E-03 -3.192000E-04 6.207983E-02 8.246829E-01 
6.207983E-02 8.246829E-01 2.272836E-03 -3.192000E-04 4.236698E-04 -3.601724E-04 4.899909E-02 -2.058628E-02 
-9.093763E-04 2.974925E-04 -1.582858E-04 2.086525E-04 
2.272836E-03 -3.192000E-04 6.084010E-02 8.250377E-01 2.272836E-03 -3.192000E-04 -9.093763E-04 2.974925E-04 
4.948338E-02 -2.083608E-02 -9.093763E-04 2.974925E-04 
4.236698E-04 -3.601724E-04 2.272836E-03 -3.192000E-04 6.207983E-02 8.246829E-01 -1.582858E-04 2.086525E-04 
-9.093763E-04 2.974925E-04 4.899909E-02 -2.058628E-02 

1.300E+00 6.022852E-02 -1.169982E-01 -1.095110E-03 1.805112E-03 7.174839E-05 5.134683E-04 6.825639E-01 4.394966E-01 
1.333919E-03 -2.014517E-03 -4.370882E-05 -5.782086E-04 
-1.095110E-03 1.805112E-03 6.066509E-02 -1.180912E-01 -1.095110E-03 1.805112E-03 1.333919E-03 -2.014517E-03 
6.820070E-01 4.407226E-01 1.333919E-03 -2.014517E-03 
7.174839E-05 5.134683E-04 -1.095110E-03 1.805112E-03 6.022852E-02 -1.169982E-01 -4.370882E-05 -5.782086E-04 
1.333919E-03 -2.014517E-03 6.825639E-01 4.394966E-01 
6.825639E-01 4.394966E-01 1.333919E-03 -2.014517E-03 -4.370882E-05 -5.782086E-04 6.022852E-02 -1.169982E-01 
-1.095110E-03 1.805112E-03 7.174839E-05 5.134683E-04 
1.333919E-03 -2.014517E-03 6.820070E-01 4.407226E-01 1.333919E-03 -2.014517E-03 -1.095110E-03 1.805112E-03 
6.066509E-02 -1.180912E-01 -1.095110E-03 1.805112E-03 
-4.370882E-05 -5.782086E-04 1.333919E-03 -2.014517E-03 6.825639E-01 4.394966E-01 7.174839E-05 5.134683E-04 
-1.095110E-03 1.805112E-03 6.022852E-02 -1.169982E-01 

1.400E+00 -5.662187E-02 -1.615701E-01 6.700548E-04 2.631689E-03 5.206754E-04 3.319458E-04 7.521229E-01 -2.671924E-01 
-7.803334E-04 -2.658131E-03 -5.409064E-04 -3.193226E-04 
6.700548E-04 2.631689E-03 -5.723124E-02 -1.629330E-01 6.700548E-04 2.631689E-03 -7.803334E-04 -2.658131E-03 
7.527933E-01 -2.658260E-01 -7.803334E-04 -2.658131E-03 
5.206754E-04 3.319458E-04 6.700548E-04 2.631689E-03 -5.662187E-02 -1.615701E-01 -5.409064E-04 -3.193226E-04 
-7.803334E-04 -2.658131E-03 7.521229E-01 -2.671924E-01 
7.521229E-01 -2.671924E-01 -7.803334E-04 -2.658131E-03 -5.409064E-04 -3.193226E-04 -5.662187E-02 -1.615701E-01 
6.700548E-04 2.631689E-03 5.206754E-04 3.319458E-04 
-7.803334E-04 -2.658131E-03 7.527933E-01 -2.658260E-01 -7.803334E-04 -2.658131E-03 6.700548E-04 2.631689E-03 
-5.723124E-02 -1.629330E-01 6.700548E-04 2.631689E-03 
-5.409064E-04 -3.193226E-04 -7.803334E-04 -2.658131E-03 7.521229E-01 -2.671924E-01 5.206754E-04 3.319458E-04 
6.700548E-04 2.631689E-03 -5.662187E-02 -1.615701E-01 

1.500E+00 -1.320194E-01 -6.121922E-02 2.160099E-03 1.234129E-03 4.867506E-04 -1.479281E-04 2.484183E-01 -7.542132E-01 
-3.005627E-03 -1.017002E-03 -5.809289E-04 3.007217E-04 
2.160099E-03 1.234129E-03 -1.332883E-01 -6.167863E-02 2.160099E-03 1.234129E-03 -3.005627E-03 -1.017002E-03 
2.501180E-01 -7.539491E-01 -3.005627E-03 -1.017002E-03 
4.867506E-04 -1.479281E-04 2.160099E-03 1.234129E-03 -1.320194E-01 -6.121922E-02 -5.809289E-04 3.007217E-04 
-3.005627E-03 -1.017002E-03 2.484183E-01 -7.542132E-01 
2.484183E-01 -7.542132E-01 -3.005627E-03 -1.017002E-03 -5.809289E-04 3.007217E-04 -1.320194E-01 -6.121922E-02 
2.160099E-03 1.234129E-03 4.867506E-04 -1.479281E-04 
-3.005627E-03 -1.017002E-03 2.501180E-01 -7.539491E-01 -3.005627E-03 -1.017002E-03 2.160099E-03 1.234129E-03 
-1.332883E-01 -6.167863E-02 2.160099E-03 1.234129E-03 
-5.809289E-04 3.007217E-04 -3.005627E-03 -1.017002E-03 2.484183E-01 -7.542132E-01 4.867506E-04 -1.479281E-04 
2.160099E-03 1.234129E-03 -1.320194E-01 -6.121922E-02 

1.600E+00 -6.388596E-02 1.263149E-02 1.386087E-03 -3.807149E-04 1.202316E-04 -2.205752E-04 -4.509665E-01 -6.541293E-01 
-2.653034E-03 2.089306E-03 -7.163827E-05 6.232920E-04 
1.386087E-03 -3.807149E-04 -6.459184E-02 1.295469E-02 1.386087E-03 -3.807149E-04 -2.653034E-03 2.089306E-03 
-4.497416E-01 -6.554757E-01 -2.653034E-03 2.089306E-03 
1.202316E-04 -2.205752E-04 1.386087E-03 -3.807149E-04 -6.388596E-02 1.263149E-02 -7.163827E-05 6.232920E-04 
-2.653034E-03 2.089306E-03 -4.509665E-01 -6.541293E-01 
-4.509665E-01 -6.541293E-01 -2.653034E-03 2.089306E-03 -7.163827E-05 6.232920E-04 -6.388596E-02 1.263149E-02 
1.386087E-03 -3.807149E-04 1.202316E-04 -2.205752E-04 
-2.653034E-03 2.089306E-03 -4.497416E-01 -6.554757E-01 -2.653034E-03 2.089306E-03 1.386087E-03 -3.807149E-04 
-6.459184E-02 1.295469E-02 1.386087E-03 -3.807149E-04 
-7.163827E-05 6.232920E-04 -2.653034E-03 2.089306E-03 -4.509665E-01 -6.541293E-01 1.202316E-04 -2.205752E-04 
1.386087E-03 -3.807149E-04 -6.388596E-02 1.263149E-02 

1.700E+00 -1.981930E-02 -3.904918E-02 2.150499E-04 6.857989E-05 5.924479E-05 -1.474462E-05 -7.884212E-01 -3.036750E-02 
1.534033E-04 3.398146E-03 4.123164E-04 4.371674E-04 
2.150499E-04 6.857989E-05 -1.995039E-02 -3.905613E-02 2.150499E-04 6.857989E-05 1.534033E-04 3.398146E-03 
-7.887942E-01 -3.217531E-02 1.534033E-04 3.398146E-03 
5.924479E-05 -1.474462E-05 2.150499E-04 6.857989E-05 -1.981930E-02 -3.904918E-02 4.123164E-04 4.371674E-04 
1.534033E-04 3.398146E-03 -7.884212E-01 -3.036750E-02 
-7.884212E-01 -3.036750E-02 1.534033E-04 3.398146E-03 4.123164E-04 4.371674E-04 -1.981930E-02 -3.904918E-02 
2.150499E-04 6.857989E-05 5.924479E-05 -1.474462E-05 
1.534033E-04 3.398146E-03 -7.887942E-01 -3.217531E-02 1.534033E-04 3.398146E-03 2.150499E-04 6.857989E-05 
-1.995039E-02 -3.905613E-02 2.150499E-04 6.857989E-05 
4.123164E-04 4.371674E-04 1.534033E-04 3.398146E-03 -7.884212E-01 -3.036750E-02 5.924479E-05 -1.474462E-05 
2.150499E-04 6.857989E-05 -1.981930E-02 -3.904918E-02 

1.800E+00 -7.916198E-02 -5.622118E-02 8.336799E-04 7.847858E-04 2.019721E-04 -2.515131E-05 -4.930986E-01 6.030034E-01 
2.833261E-03 2.052944E-03 6.355624E-04 -1.135598E-05 
8.336799E-04 7.847858E-04 -7.966867E-02 -5.654836E-02 8.336799E-04 7.847858E-04 2.833261E-03 2.052944E-03 
-4.948181E-01 6.021357E-01 2.833261E-03 2.052944E-03 
2.019721E-04 -2.515131E-05 8.336799E-04 7.847858E-04 -7.916198E-02 -5.622118E-02 6.355624E-04 -1.135598E-05 
2.833261E-03 2.052944E-03 -4.930986E-01 6.030034E-01 
-4.930986E-01 6.030034E-01 2.833261E-03 2.052944E-03 6.355624E-04 -1.135598E-05 -7.916198E-02 -5.622118E-02 
8.336799E-04 7.847858E-04 2.019721E-04 -2.515131E-05 
2.833261E-03 2.052944E-03 -4.948181E-01 6.021357E-01 2.833261E-03 2.052944E-03 8.336799E-04 7.847858E-04 
-7.966867E-02 -5.654836E-02 8.336799E-04 7.847858E-04 
6.355624E-04 -1.135598E-05 2.833261E-03 2.052944E-03 -4.930986E-01 6.030034E-01 2.019721E-04 -2.515131E-05 
8.336799E-04 7.847858E-04 -7.916198E-02 -5.622118E-02 

1.900E+00 -9.675585E-02 1.580721E-02 1.648068E-03 -1.678533E-04 1.891712E-04 -2.430474E-04 1.790591E-01 7.506140E-01 
3.581438E-03 -1.041870E-03 4.390894E-04 -5.628951E-04 
1.648068E-03 -1.678533E-04 -9.761578E-02 1.606029E-02 1.648068E-03 -1.678533E-04 3.581438E-03 -1.041870E-03 
1.771864E-01 7.515236E-01 3.581438E-03 -1.041870E-03 
1.891712E-04 -2.430474E-04 1.648068E-03 -1.678533E-04 -9.675585E-02 1.580721E-02 4.390894E-04 -5.628951E-04 
3.581438E-03 -1.041870E-03 1.790591E-01 7.506140E-01 
1.790591E-01 7.506140E-01 3.581438E-03 -1.041870E-03 4.390894E-04 -5.628951E-04 -9.675585E-02 1.580721E-02 
1.648068E-03 -1.678533E-04 1.891712E-04 -2.430474E-04 
3.581438E-03 -1.041870E-03 1.771864E-01 7.515236E-01 3.581438E-03 -1.041870E-03 1.648068E-03 -1.678533E-04 
-9.761578E-02 1.606029E-02 1.648068E-03 -1.678533E-04 
4.390894E-04 -5.628951E-04 3.581438E-03 -1.041870E-03 1.790591E-01 7.506140E-01 1.891712E-04 -2.430474E-04 
1.648068E-03 -1.678533E-04 -9.675585E-02 1.580721E-02 

2.000E+00 -3.537474E-02 5.672541E-02 8.236344E-04 -1.583242E-03 -1.221015E-04 -3.778942E-04 7.020453E-01 3.087936E-01 
1.352934E-03 -3.709033E-03 -2.255858E-04 -7.608316E-04 
8.236344E-04 -1.583242E-03 -3.563816E-02 5.769093E-02 8.236344E-04 -1.583242E-03 1.352934E-03 -3.709033E-03 
7.016763E-01 3.109906E-01 1.352934E-03 -3.709033E-03 
-1.221015E-04 -3.778942E-04 8.236344E-04 -1.583242E-03 -3.537474E-02 5.672541E-02 -2.255858E-04 -7.608316E-04 
1.352934E-03 -3.709033E-03 7.020453E-01 3.087936E-01 
7.020453E-01 3.087936E-01 1.352934E-03 -3.709033E-03 -2.255858E-04 -7.608316E-04 -3.537474E-02 5.672541E-02 
8.236344E-04 -1.583242E-03 -1.221015E-04 -3.778942E-04 
1.352934E-03 -3.709033E-03 7.016763E-01 3.109906E-01 1.352934E-03 -3.709033E-03 8.236344E-04 -1.583242E-03 
-3.563816E-02 5.769093E-02 8.236344E-04 -1.583242E-03 
-2.255858E-04 -7.608316E-04 1.352934E-03 -3.709033E-03 7.020453E-01 3.087936E-01 -1.221015E-04 -3.778942E-04 
8.236344E-04 -1.583242E-03 -3.537474E-02 5.672541E-02 

