! Created by VPF Tool @ TET-TUHH - by terd - on 20-Jul-2016

# GHZ S RI R 50.00

! Data
1.000E-01 6.843329E-04 4.415524E-04 3.577828E-03 2.738059E-03 1.665589E-03 1.252430E-03 5.653915E-01 -7.724176E-01 
-4.482016E-03 -3.245728E-03 -2.115723E-03 -1.484024E-03 
3.577828E-03 2.738059E-03 -2.515763E-03 -2.030961E-03 2.809285E-03 2.166055E-03 -4.482016E-03 -3.245728E-03 
5.694034E-01 -7.694902E-01 -3.513256E-03 -2.565904E-03 
1.665589E-03 1.252430E-03 2.809285E-03 2.166055E-03 -2.370657E-03 -1.893141E-03 -2.115723E-03 -1.484024E-03 
-3.513256E-03 -2.565904E-03 5.692200E-01 -7.696494E-01 
5.653915E-01 -7.724176E-01 -4.482016E-03 -3.245728E-03 -2.115723E-03 -1.484024E-03 6.843329E-04 4.415524E-04 
3.577828E-03 2.738059E-03 1.665589E-03 1.252430E-03 
-4.482016E-03 -3.245728E-03 5.694034E-01 -7.694902E-01 -3.513256E-03 -2.565904E-03 3.577828E-03 2.738059E-03 
-2.515763E-03 -2.030961E-03 2.809285E-03 2.166055E-03 
-2.115723E-03 -1.484024E-03 -3.513256E-03 -2.565904E-03 5.692200E-01 -7.696494E-01 1.665589E-03 1.252430E-03 
2.809285E-03 2.166055E-03 -2.370657E-03 -1.893141E-03 

2.000E-01 1.996999E-03 -6.274165E-04 4.060665E-03 -8.291041E-04 1.875019E-03 -3.794180E-04 -2.836023E-01 -8.933818E-01 
-1.042911E-02 3.607876E-03 -4.883499E-03 1.926524E-03 
4.060665E-03 -8.291041E-04 -1.694245E-03 9.184708E-05 3.215579E-03 -6.422986E-04 -1.042911E-02 3.607876E-03 
-2.742011E-01 -8.965890E-01 -8.204513E-03 2.759929E-03 
1.875019E-03 -3.794180E-04 3.215579E-03 -6.422986E-04 -1.468003E-03 8.224111E-05 -4.883499E-03 1.926524E-03 
-8.204513E-03 2.759929E-03 -2.746903E-01 -8.964803E-01 
-2.836023E-01 -8.933818E-01 -1.042911E-02 3.607876E-03 -4.883499E-03 1.926524E-03 1.996999E-03 -6.274165E-04 
4.060665E-03 -8.291041E-04 1.875019E-03 -3.794180E-04 
-1.042911E-02 3.607876E-03 -2.742011E-01 -8.965890E-01 -8.204513E-03 2.759929E-03 4.060665E-03 -8.291041E-04 
-1.694245E-03 9.184708E-05 3.215579E-03 -6.422986E-04 
-4.883499E-03 1.926524E-03 -8.204513E-03 2.759929E-03 -2.746903E-01 -8.964803E-01 1.875019E-03 -3.794180E-04 
3.215579E-03 -6.422986E-04 -1.468003E-03 8.224110E-05 

3.000E-01 1.639763E-03 -2.782451E-03 3.946598E-04 1.605300E-03 3.925120E-04 7.993248E-04 -8.726794E-01 -2.929495E-01 
-4.334255E-03 1.592575E-02 -1.453410E-03 7.873486E-03 
3.946598E-04 1.605300E-03 1.262706E-03 -4.153077E-03 2.651011E-04 1.220523E-03 -4.334255E-03 1.592575E-02 
-8.687111E-01 -3.072928E-01 -3.576849E-03 1.239281E-02 
3.925120E-04 7.993248E-04 2.651011E-04 1.220523E-03 1.289294E-03 -4.159451E-03 -1.453410E-03 7.873486E-03 
-3.576849E-03 1.239281E-02 -8.690082E-01 -3.066127E-01 
-8.726794E-01 -2.929495E-01 -4.334255E-03 1.592575E-02 -1.453410E-03 7.873486E-03 1.639763E-03 -2.782451E-03 
3.946598E-04 1.605300E-03 3.925120E-04 7.993248E-04 
-4.334255E-03 1.592575E-02 -8.687111E-01 -3.072928E-01 -3.576849E-03 1.239281E-02 3.946598E-04 1.605300E-03 
1.262706E-03 -4.153077E-03 2.651011E-04 1.220523E-03 
-1.453410E-03 7.873486E-03 -3.576849E-03 1.239281E-02 -8.690082E-01 -3.066127E-01 3.925120E-04 7.993248E-04 
2.651011E-04 1.220523E-03 1.289294E-03 -4.159451E-03 

4.000E-01 4.069179E-04 -3.137030E-03 5.713626E-03 5.890728E-03 3.108624E-03 2.226803E-03 -7.387679E-01 5.224544E-01 
1.427743E-02 1.647215E-02 8.031884E-03 7.075819E-03 
5.713626E-03 5.890728E-03 -4.620214E-03 -8.445594E-03 4.326890E-03 4.766492E-03 1.427743E-02 1.647215E-02 
-7.515979E-01 5.075105E-01 1.080769E-02 1.311305E-02 
3.108624E-03 2.226803E-03 4.326890E-03 4.766492E-03 -4.514477E-03 -8.141651E-03 8.031884E-03 7.075819E-03 
1.080769E-02 1.311305E-02 -7.511275E-01 5.083700E-01 
-7.387679E-01 5.224544E-01 1.427743E-02 1.647215E-02 8.031884E-03 7.075819E-03 4.069179E-04 -3.137030E-03 
5.713626E-03 5.890728E-03 3.108624E-03 2.226803E-03 
1.427743E-02 1.647215E-02 -7.515979E-01 5.075105E-01 1.080769E-02 1.311305E-02 5.713626E-03 5.890728E-03 
-4.620214E-03 -8.445594E-03 4.326890E-03 4.766492E-03 
8.031884E-03 7.075819E-03 1.080769E-02 1.311305E-02 -7.511275E-01 5.083700E-01 3.108624E-03 2.226803E-03 
4.326890E-03 4.766492E-03 -4.514477E-03 -8.141651E-03 

5.000E-01 1.842848E-03 -4.009008E-03 1.206174E-02 -1.522134E-03 5.163677E-03 -1.949507E-03 -1.470476E-02 8.896329E-01 
2.647203E-02 -3.339575E-03 1.245363E-02 -4.046848E-03 
1.206174E-02 -1.522134E-03 -9.039471E-03 -2.820588E-03 9.584883E-03 -7.940632E-04 2.647203E-02 -3.339575E-03 
-3.871021E-02 8.925520E-01 2.072030E-02 -1.881596E-03 
5.163677E-03 -1.949507E-03 9.584883E-03 -7.940632E-04 -8.467193E-03 -2.613704E-03 1.245363E-02 -4.046848E-03 
2.072030E-02 -1.881596E-03 -3.748835E-02 8.927338E-01 
-1.470476E-02 8.896329E-01 2.647203E-02 -3.339575E-03 1.245363E-02 -4.046848E-03 1.842848E-03 -4.009008E-03 
1.206174E-02 -1.522134E-03 5.163677E-03 -1.949507E-03 
2.647203E-02 -3.339575E-03 -3.871021E-02 8.925520E-01 2.072030E-02 -1.881596E-03 1.206174E-02 -1.522134E-03 
-9.039471E-03 -2.820588E-03 9.584883E-03 -7.940632E-04 
1.245363E-02 -4.046848E-03 2.072030E-02 -1.881596E-03 -3.748835E-02 8.927338E-01 5.163677E-03 -1.949507E-03 
9.584883E-03 -7.940632E-04 -8.467193E-03 -2.613704E-03 

6.000E-01 5.060174E-04 -1.038759E-02 5.744346E-03 -1.208652E-02 6.775565E-04 -6.019065E-03 6.973025E-01 5.294413E-01 
1.406565E-02 -2.761783E-02 3.497232E-03 -1.460785E-02 
5.744346E-03 -1.208652E-02 -4.887392E-03 4.600979E-04 5.116875E-03 -9.305239E-03 1.406565E-02 -2.761783E-02 
6.844404E-01 5.544994E-01 1.191759E-02 -2.108044E-02 
6.775565E-04 -6.019065E-03 5.116875E-03 -9.305239E-03 -4.273483E-03 5.878526E-05 3.497232E-03 -1.460785E-02 
1.191759E-02 -2.108044E-02 6.854817E-01 5.534587E-01 
6.973025E-01 5.294413E-01 1.406565E-02 -2.761783E-02 3.497232E-03 -1.460785E-02 5.060174E-04 -1.038759E-02 
5.744346E-03 -1.208652E-02 6.775565E-04 -6.019065E-03 
1.406565E-02 -2.761783E-02 6.844404E-01 5.544994E-01 1.191759E-02 -2.108044E-02 5.744346E-03 -1.208652E-02 
-4.887392E-03 4.600979E-04 5.116875E-03 -9.305239E-03 
3.497232E-03 -1.460785E-02 1.191759E-02 -2.108044E-02 6.854817E-01 5.534587E-01 6.775565E-04 -6.019065E-03 
5.116875E-03 -9.305239E-03 -4.273483E-03 5.878526E-05 

7.000E-01 -1.165780E-02 -1.207786E-02 -8.571630E-03 -1.275960E-02 -6.087868E-03 -3.992932E-03 8.267908E-01 -2.451504E-01 
-1.640273E-02 -3.086968E-02 -1.144665E-02 -1.211825E-02 
-8.571630E-03 -1.275960E-02 -4.046012E-03 -4.209294E-04 -5.970706E-03 -1.052173E-02 -1.640273E-02 -3.086968E-02 
8.416692E-01 -2.170060E-01 -1.161045E-02 -2.477732E-02 
-6.087868E-03 -3.992932E-03 -5.970706E-03 -1.052173E-02 -3.986428E-03 -1.225469E-03 -1.144665E-02 -1.211825E-02 
-1.161045E-02 -2.477732E-02 8.414616E-01 -2.186841E-01 
8.267908E-01 -2.451504E-01 -1.640273E-02 -3.086968E-02 -1.144665E-02 -1.211825E-02 -1.165780E-02 -1.207786E-02 
-8.571630E-03 -1.275960E-02 -6.087868E-03 -3.992932E-03 
-1.640273E-02 -3.086968E-02 8.416692E-01 -2.170060E-01 -1.161045E-02 -2.477732E-02 -8.571630E-03 -1.275960E-02 
-4.046012E-03 -4.209294E-04 -5.970706E-03 -1.052173E-02 
-1.144665E-02 -1.211825E-02 -1.161045E-02 -2.477732E-02 8.414616E-01 -2.186841E-01 -6.087868E-03 -3.992932E-03 
-5.970706E-03 -1.052173E-02 -3.986428E-03 -1.225469E-03 

8.000E-01 -1.834015E-02 3.844330E-03 -1.987894E-02 -1.441903E-04 -9.028004E-03 3.797717E-03 2.869212E-01 -8.000369E-01 
-3.867071E-02 -5.153652E-03 -1.826435E-02 2.867540E-03 
-1.987894E-02 -1.441903E-04 -2.937441E-04 4.093196E-03 -1.545372E-02 -1.406625E-03 -3.867071E-02 -5.153652E-03 
3.222370E-01 -7.952691E-01 -3.001085E-02 -5.733042E-03 
-9.028004E-03 3.797717E-03 -1.545372E-02 -1.406625E-03 -1.062135E-03 3.411417E-03 -1.826435E-02 2.867540E-03 
-3.001085E-02 -5.733042E-03 3.205694E-01 -7.963075E-01 
2.869212E-01 -8.000369E-01 -3.867071E-02 -5.153652E-03 -1.826435E-02 2.867540E-03 -1.834015E-02 3.844330E-03 
-1.987894E-02 -1.441903E-04 -9.028004E-03 3.797717E-03 
-3.867071E-02 -5.153652E-03 3.222370E-01 -7.952691E-01 -3.001085E-02 -5.733042E-03 -1.987894E-02 -1.441903E-04 
-2.937441E-04 4.093196E-03 -1.545372E-02 -1.406625E-03 
-1.826435E-02 2.867540E-03 -3.001085E-02 -5.733042E-03 3.205694E-01 -7.963075E-01 -9.028004E-03 3.797717E-03 
-1.545372E-02 -1.406625E-03 -1.062135E-03 3.411417E-03 

9.000E-01 -1.247170E-03 1.357728E-02 -1.460087E-02 1.761691E-02 -3.050166E-03 1.078234E-02 -4.691253E-01 -6.935871E-01 
-2.969239E-02 3.172175E-02 -8.933572E-03 1.875188E-02 
-1.460087E-02 1.761691E-02 1.218007E-02 -2.525036E-03 -1.263620E-02 1.276661E-02 -2.969239E-02 3.172175E-02 
-4.418811E-01 -7.227099E-01 -2.475113E-02 2.332824E-02 
-3.050166E-03 1.078234E-02 -1.263620E-02 1.276661E-02 1.084472E-02 -2.207025E-03 -8.933572E-03 1.875188E-02 
-2.475113E-02 2.332824E-02 -4.440472E-01 -7.218728E-01 
-4.691253E-01 -6.935871E-01 -2.969239E-02 3.172175E-02 -8.933572E-03 1.875188E-02 -1.247170E-03 1.357728E-02 
-1.460087E-02 1.761691E-02 -3.050166E-03 1.078234E-02 
-2.969239E-02 3.172175E-02 -4.418811E-01 -7.227099E-01 -2.475113E-02 2.332824E-02 -1.460087E-02 1.761691E-02 
1.218007E-02 -2.525036E-03 -1.263620E-02 1.276661E-02 
-8.933572E-03 1.875188E-02 -2.475113E-02 2.332824E-02 -4.440472E-01 -7.218728E-01 -3.050166E-03 1.078234E-02 
-1.263620E-02 1.276661E-02 1.084472E-02 -2.207025E-03 

1.000E+00 6.479056E-03 -4.443865E-03 8.225834E-04 1.735465E-02 3.597285E-03 6.825113E-03 -8.230824E-01 -3.037670E-02 
1.023164E-02 4.717780E-02 1.228711E-02 2.004437E-02 
8.225834E-04 1.735465E-02 5.622885E-03 -2.075578E-02 -4.859008E-04 1.403807E-02 1.023164E-02 4.717780E-02 
-8.327541E-01 -7.376353E-02 5.413652E-03 3.732653E-02 
3.597285E-03 6.825113E-03 -4.859008E-04 1.403807E-02 5.181163E-03 -1.936447E-02 1.228711E-02 2.004437E-02 
5.413652E-03 3.732653E-02 -8.333409E-01 -7.121345E-02 
-8.230824E-01 -3.037670E-02 1.023164E-02 4.717780E-02 1.228711E-02 2.004437E-02 6.479056E-03 -4.443865E-03 
8.225834E-04 1.735465E-02 3.597285E-03 6.825113E-03 
1.023164E-02 4.717780E-02 -8.327541E-01 -7.376353E-02 5.413652E-03 3.732653E-02 8.225834E-04 1.735465E-02 
5.622885E-03 -2.075578E-02 -4.859008E-04 1.403807E-02 
1.228711E-02 2.004437E-02 5.413652E-03 3.732653E-02 -8.333409E-01 -7.121345E-02 3.597285E-03 6.825113E-03 
-4.859008E-04 1.403807E-02 5.181163E-03 -1.936447E-02 

1.100E+00 -1.568654E-02 -5.682170E-03 -4.330573E-03 6.981888E-03 -2.337238E-03 3.844370E-03 -5.023866E-01 6.337792E-01 
4.896537E-02 1.884303E-02 2.612062E-02 -2.897391E-04 
-4.330573E-03 6.981888E-03 -1.255871E-02 -1.230811E-02 -2.979441E-03 5.308523E-03 4.896537E-02 1.884303E-02 
-5.475654E-01 6.169433E-01 3.683121E-02 1.764814E-02 
-2.337238E-03 3.844370E-03 -2.979441E-03 5.308523E-03 -1.189265E-02 -1.191134E-02 2.612062E-02 -2.897391E-04 
3.683121E-02 1.764814E-02 -5.458005E-01 6.189840E-01 
-5.023866E-01 6.337792E-01 4.896537E-02 1.884303E-02 2.612062E-02 -2.897391E-04 -1.568654E-02 -5.682170E-03 
-4.330573E-03 6.981888E-03 -2.337238E-03 3.844370E-03 
4.896537E-02 1.884303E-02 -5.475654E-01 6.169433E-01 3.683121E-02 1.764814E-02 -4.330573E-03 6.981888E-03 
-1.255871E-02 -1.230811E-02 -2.979441E-03 5.308523E-03 
2.612062E-02 -2.897391E-04 3.683121E-02 1.764814E-02 -5.458005E-01 6.189840E-01 -2.337238E-03 3.844370E-03 
-2.979441E-03 5.308523E-03 -1.189265E-02 -1.191134E-02 

1.200E+00 -1.100979E-02 2.504749E-02 -1.760817E-02 2.341039E-02 -3.523988E-03 1.618823E-02 2.072620E-01 7.669851E-01 
4.422191E-02 -3.182892E-02 1.343653E-02 -2.411117E-02 
-1.760817E-02 2.341039E-02 4.528494E-03 4.159145E-03 -1.504556E-02 1.601855E-02 4.422191E-02 -3.182892E-02 
1.670256E-01 7.964775E-01 3.657672E-02 -2.134234E-02 
-3.523988E-03 1.618823E-02 -1.504556E-02 1.601855E-02 3.461096E-03 3.605197E-03 1.343653E-02 -2.411117E-02 
3.657672E-02 -2.134234E-02 1.698826E-01 7.966130E-01 
2.072620E-01 7.669851E-01 4.422191E-02 -3.182892E-02 1.343653E-02 -2.411117E-02 -1.100979E-02 2.504749E-02 
-1.760817E-02 2.341039E-02 -3.523988E-03 1.618823E-02 
4.422191E-02 -3.182892E-02 1.670256E-01 7.964775E-01 3.657672E-02 -2.134234E-02 -1.760817E-02 2.341039E-02 
4.528494E-03 4.159145E-03 -1.504556E-02 1.601855E-02 
1.343653E-02 -2.411117E-02 3.657672E-02 -2.134234E-02 1.698826E-01 7.966130E-01 -3.523988E-03 1.618823E-02 
-1.504556E-02 1.601855E-02 3.461096E-03 3.605197E-03 

1.300E+00 2.853840E-02 2.104064E-02 4.393337E-03 4.924857E-02 1.482619E-02 2.093879E-02 7.286569E-01 2.863293E-01 
-2.936630E-04 -5.484660E-02 -1.380492E-02 -2.394161E-02 
4.393337E-03 4.924857E-02 2.455416E-02 -2.399660E-02 -1.251136E-03 3.852935E-02 -2.936630E-04 -5.484660E-02 
7.289970E-01 3.367571E-01 4.704857E-03 -4.275460E-02 
1.482619E-02 2.093879E-02 -1.251136E-03 3.852935E-02 2.226114E-02 -2.178471E-02 -1.380492E-02 -2.394161E-02 
4.704857E-03 -4.275460E-02 7.315119E-01 3.342029E-01 
7.286569E-01 2.863293E-01 -2.936630E-04 -5.484660E-02 -1.380492E-02 -2.394161E-02 2.853840E-02 2.104064E-02 
4.393337E-03 4.924857E-02 1.482619E-02 2.093879E-02 
-2.936630E-04 -5.484660E-02 7.289970E-01 3.367571E-01 4.704857E-03 -4.275460E-02 4.393337E-03 4.924857E-02 
2.455416E-02 -2.399660E-02 -1.251136E-03 3.852935E-02 
-1.380492E-02 -2.394161E-02 4.704857E-03 -4.275460E-02 7.315119E-01 3.342029E-01 1.482619E-02 2.093879E-02 
-1.251136E-03 3.852935E-02 2.226114E-02 -2.178471E-02 

1.400E+00 3.180047E-02 -1.930974E-02 4.203907E-02 3.434695E-02 2.591025E-02 2.293007E-03 6.561586E-01 -4.104892E-01 
-4.453279E-02 -3.420811E-02 -2.683048E-02 -1.686877E-03 
4.203907E-02 3.434695E-02 -7.477804E-03 -5.135964E-02 3.000784E-02 3.149076E-02 -4.453279E-02 -3.420811E-02 
6.976863E-01 -3.786810E-01 -3.198729E-02 -3.153674E-02 
2.591025E-02 2.293007E-03 3.000784E-02 3.149076E-02 -6.517804E-03 -4.699112E-02 -2.683048E-02 -1.686877E-03 
-3.198729E-02 -3.153674E-02 6.966351E-01 -3.830254E-01 
6.561586E-01 -4.104892E-01 -4.453279E-02 -3.420811E-02 -2.683048E-02 -1.686877E-03 3.180047E-02 -1.930974E-02 
4.203907E-02 3.434695E-02 2.591025E-02 2.293007E-03 
-4.453279E-02 -3.420811E-02 6.976863E-01 -3.786810E-01 -3.198729E-02 -3.153674E-02 4.203907E-02 3.434695E-02 
-7.477804E-03 -5.135964E-02 3.000784E-02 3.149076E-02 
-2.683048E-02 -1.686877E-03 -3.198729E-02 -3.153674E-02 6.966351E-01 -3.830254E-01 2.591025E-02 2.293007E-03 
3.000784E-02 3.149076E-02 -6.517804E-03 -4.699112E-02 

1.500E+00 3.008004E-03 -2.790507E-02 4.093291E-02 -3.535036E-03 1.289290E-02 -1.194450E-02 5.785202E-02 -7.644737E-01 
-5.752599E-02 1.493423E-02 -1.687536E-02 1.999595E-02 
4.093291E-02 -3.535036E-03 -3.625740E-02 -2.424355E-02 3.396261E-02 1.148946E-03 -5.752599E-02 1.493423E-02 
1.117111E-01 -7.791244E-01 -4.775072E-02 6.656807E-03 
1.289290E-02 -1.194450E-02 3.396261E-02 1.148946E-03 -3.217673E-02 -2.270385E-02 -1.687536E-02 1.999595E-02 
-4.775072E-02 6.656807E-03 1.070371E-01 -7.803650E-01 
5.785202E-02 -7.644737E-01 -5.752599E-02 1.493423E-02 -1.687536E-02 1.999595E-02 3.008004E-03 -2.790507E-02 
4.093291E-02 -3.535036E-03 1.289290E-02 -1.194450E-02 
-5.752599E-02 1.493423E-02 1.117111E-01 -7.791244E-01 -4.775072E-02 6.656807E-03 4.093291E-02 -3.535036E-03 
-3.625740E-02 -2.424355E-02 3.396261E-02 1.148946E-03 
-1.687536E-02 1.999595E-02 -4.775072E-02 6.656807E-03 1.070371E-01 -7.803650E-01 1.289290E-02 -1.194450E-02 
3.396261E-02 1.148946E-03 -3.217673E-02 -2.270385E-02 

1.600E+00 -4.094739E-04 -1.598883E-02 1.396813E-02 -1.064028E-02 1.570031E-03 -5.448042E-03 -5.776987E-01 -4.927556E-01 
-2.432868E-02 5.870351E-02 4.796444E-03 2.589596E-02 
1.396813E-02 -1.064028E-02 -1.403600E-02 -4.499688E-03 1.279182E-02 -8.309834E-03 -2.432868E-02 5.870351E-02 
-5.559757E-01 -5.482829E-01 -2.458638E-02 4.522729E-02 
1.570031E-03 -5.448042E-03 1.279182E-02 -8.309834E-03 -1.190258E-02 -6.243208E-03 4.796444E-03 2.589596E-02 
-2.458638E-02 4.522729E-02 -5.594343E-01 -5.451757E-01 
-5.776987E-01 -4.927556E-01 -2.432868E-02 5.870351E-02 4.796444E-03 2.589596E-02 -4.094739E-04 -1.598883E-02 
1.396813E-02 -1.064028E-02 1.570031E-03 -5.448042E-03 
-2.432868E-02 5.870351E-02 -5.559757E-01 -5.482829E-01 -2.458638E-02 4.522729E-02 1.396813E-02 -1.064028E-02 
-1.403600E-02 -4.499688E-03 1.279182E-02 -8.309834E-03 
4.796444E-03 2.589596E-02 -2.458638E-02 4.522729E-02 -5.594343E-01 -5.451757E-01 1.570031E-03 -5.448042E-03 
1.279182E-02 -8.309834E-03 -1.190258E-02 -6.243208E-03 

1.700E+00 2.460263E-03 -2.453556E-02 1.023358E-02 4.953781E-03 5.929584E-03 4.846100E-05 -7.287751E-01 1.760770E-01 
3.497864E-02 5.867428E-02 2.470985E-02 1.394501E-02 
1.023358E-02 4.953781E-03 -6.366487E-03 -2.800328E-02 7.096505E-03 4.304473E-03 3.497864E-02 5.867428E-02 
-7.627232E-01 1.218126E-01 2.301929E-02 4.969793E-02 
5.929584E-03 4.846100E-05 7.096505E-03 4.304473E-03 -6.895834E-03 -2.835196E-02 2.470985E-02 1.394501E-02 
2.301929E-02 4.969793E-02 -7.626865E-01 1.263816E-01 
-7.287751E-01 1.760770E-01 3.497864E-02 5.867428E-02 2.470985E-02 1.394501E-02 2.460263E-03 -2.453556E-02 
1.023358E-02 4.953781E-03 5.929584E-03 4.846100E-05 
3.497864E-02 5.867428E-02 -7.627232E-01 1.218126E-01 2.301929E-02 4.969793E-02 1.023358E-02 4.953781E-03 
-6.366487E-03 -2.800328E-02 7.096505E-03 4.304473E-03 
2.470985E-02 1.394501E-02 2.301929E-02 4.969793E-02 -7.626865E-01 1.263816E-01 5.929584E-03 4.846100E-05 
7.096505E-03 4.304473E-03 -6.895834E-03 -2.835196E-02 

1.800E+00 -9.537135E-03 -2.957664E-02 2.475424E-02 -3.707457E-04 8.994031E-03 -7.173314E-03 -2.803186E-01 6.817294E-01 
7.390979E-02 6.418497E-03 2.947202E-02 -1.273679E-02 
2.475424E-02 -3.707457E-04 -3.211463E-02 -2.935179E-02 1.958322E-02 2.727974E-03 7.390979E-02 6.418497E-03 
-3.499302E-01 6.771682E-01 5.780192E-02 1.162999E-02 
8.994031E-03 -7.173314E-03 1.958322E-02 2.727974E-03 -3.109921E-02 -2.754409E-02 2.947202E-02 -1.273679E-02 
5.780192E-02 1.162999E-02 -3.461254E-01 6.806125E-01 
-2.803186E-01 6.817294E-01 7.390979E-02 6.418497E-03 2.947202E-02 -1.273679E-02 -9.537135E-03 -2.957664E-02 
2.475424E-02 -3.707457E-04 8.994031E-03 -7.173314E-03 
7.390979E-02 6.418497E-03 -3.499302E-01 6.771682E-01 5.780192E-02 1.162999E-02 2.475424E-02 -3.707457E-04 
-3.211463E-02 -2.935179E-02 1.958322E-02 2.727974E-03 
2.947202E-02 -1.273679E-02 5.780192E-02 1.162999E-02 -3.461254E-01 6.806125E-01 8.994031E-03 -7.173314E-03 
1.958322E-02 2.727974E-03 -3.109921E-02 -2.754409E-02 

1.900E+00 -1.484683E-02 -3.217626E-02 1.719259E-02 -2.506534E-02 -1.286926E-03 -1.492651E-02 3.783635E-01 6.150887E-01 
5.051968E-02 -6.210312E-02 6.525056E-03 -3.562297E-02 
1.719259E-02 -2.506534E-02 -3.128982E-02 -8.817513E-03 1.723458E-02 -1.751527E-02 5.051968E-02 -6.210312E-02 
3.319903E-01 6.749526E-01 4.573409E-02 -4.385285E-02 
-1.286926E-03 -1.492651E-02 1.723458E-02 -1.751527E-02 -2.773564E-02 -8.882354E-03 6.525056E-03 -3.562297E-02 
4.573409E-02 -4.385285E-02 3.379245E-01 6.738590E-01 
3.783635E-01 6.150887E-01 5.051968E-02 -6.210312E-02 6.525056E-03 -3.562297E-02 -1.484683E-02 -3.217626E-02 
1.719259E-02 -2.506534E-02 -1.286926E-03 -1.492651E-02 
5.051968E-02 -6.210312E-02 3.319903E-01 6.749526E-01 4.573409E-02 -4.385285E-02 1.719259E-02 -2.506534E-02 
-3.128982E-02 -8.817513E-03 1.723458E-02 -1.751527E-02 
6.525056E-03 -3.562297E-02 4.573409E-02 -4.385285E-02 3.379245E-01 6.738590E-01 -1.286926E-03 -1.492651E-02 
1.723458E-02 -1.751527E-02 -2.773564E-02 -8.882354E-03 

2.000E+00 -3.996191E-02 -4.362470E-02 -1.778724E-02 -2.989120E-02 -1.806600E-02 -7.614711E-03 7.037493E-01 5.768494E-02 
-2.548550E-02 -8.002209E-02 -2.922229E-02 -2.632023E-02 
-1.778724E-02 -2.989120E-02 -2.341208E-02 -1.535269E-02 -9.024079E-03 -2.580932E-02 -2.548550E-02 -8.002209E-02 
7.301415E-01 1.330155E-01 -1.139714E-02 -6.544680E-02 
-1.806600E-02 -7.614711E-03 -9.024079E-03 -2.580932E-02 -2.114108E-02 -1.906068E-02 -2.922229E-02 -2.632023E-02 
-1.139714E-02 -6.544680E-02 7.329122E-01 1.267606E-01 
7.037493E-01 5.768494E-02 -2.548550E-02 -8.002209E-02 -2.922229E-02 -2.632023E-02 -3.996191E-02 -4.362470E-02 
-1.778724E-02 -2.989120E-02 -1.806600E-02 -7.614711E-03 
-2.548550E-02 -8.002209E-02 7.301415E-01 1.330155E-01 -1.139714E-02 -6.544680E-02 -1.778724E-02 -2.989120E-02 
-2.341208E-02 -1.535269E-02 -9.024079E-03 -2.580932E-02 
-2.922229E-02 -2.632023E-02 -1.139714E-02 -6.544680E-02 7.329122E-01 1.267606E-01 -1.806600E-02 -7.614711E-03 
-9.024079E-03 -2.580932E-02 -2.114108E-02 -1.906068E-02 

